# MHz S MA R 50.00                                                                                                                                                                                                                                              
 4.00000000E+01   6.10077879E-01  -4.65145752E+01   4.90078726E+01   1.55327719E+02   1.10005445E-02   6.89901176E+01   8.63269490E-01  -2.59043213E+01
 1.00000000E+02   6.18389076E-01  -9.65945872E+01   3.71548795E+01   1.31460501E+02   2.00115271E-02   5.31882651E+01   6.41043748E-01  -5.28761539E+01
 2.00000000E+02   6.34628367E-01  -1.35560868E+02   2.33128333E+01   1.11916856E+02   2.70450109E-02   4.55389585E+01   4.09959351E-01  -7.49742957E+01
 3.00000000E+02   6.43307571E-01  -1.52746485E+02   1.65002332E+01   1.02519059E+02   3.08725388E-02   4.48108965E+01   2.99843038E-01  -8.88589891E+01
 4.00000000E+02   6.47244568E-01  -1.62336526E+02   1.26383477E+01   9.69500877E+01   3.40407313E-02   4.75306943E+01   2.45004913E-01  -9.71416295E+01
 5.00000000E+02   6.51734969E-01  -1.69502794E+02   1.02534410E+01   9.25937009E+01   3.78903576E-02   5.04881478E+01   2.11042553E-01  -1.04637941E+02
 6.00000000E+02   6.47925512E-01  -1.74332822E+02   8.61386016E+00   8.96836199E+01   4.19433987E-02   5.37584253E+01   1.88177111E-01  -1.08231081E+02
 7.00000000E+02   6.52908079E-01  -1.78949904E+02   7.42303490E+00   8.65596528E+01   4.59256417E-02   5.50851456E+01   1.77504418E-01  -1.14173725E+02
 8.00000000E+02   6.52816049E-01   1.77062367E+02   6.51210127E+00   8.40939423E+01   4.95683082E-02   5.70468253E+01   1.66440687E-01  -1.18987171E+02
 9.00000000E+02   6.49116645E-01   1.74298845E+02   5.85451898E+00   8.20034481E+01   5.41460204E-02   5.92498094E+01   1.58604154E-01  -1.20211569E+02
 1.00000000E+03   6.51131564E-01   1.70580677E+02   5.25541648E+00   7.98903829E+01   5.81659854E-02   6.05958628E+01   1.53017326E-01  -1.24536568E+02
 1.20000000E+03   6.54793596E-01   1.64569749E+02   4.39573644E+00   7.63716755E+01   6.71140268E-02   6.28525311E+01   1.50962331E-01  -1.31392026E+02
 1.40000000E+03   6.64770106E-01   1.59913347E+02   3.79223241E+00   7.21435737E+01   7.50838491E-02   6.39594601E+01   1.55713863E-01  -1.35795059E+02
 1.60000000E+03   6.62883567E-01   1.55296796E+02   3.30951667E+00   6.90578662E+01   8.49818191E-02   6.55323313E+01   1.57175760E-01  -1.36058549E+02
 1.80000000E+03   6.67430383E-01   1.50741755E+02   3.01705061E+00   6.64660094E+01   9.58650310E-02   6.56326262E+01   1.60301520E-01  -1.40878228E+02
 2.00000000E+03   6.70289993E-01   1.45277100E+02   2.69813559E+00   6.37848912E+01   1.04162821E-01   6.56932863E+01   1.57475534E-01  -1.43656148E+02
 2.20000000E+03   6.83157423E-01   1.41728013E+02   2.44305121E+00   6.04836628E+01   1.12726184E-01   6.49701339E+01   1.77812731E-01  -1.47941576E+02
 2.40000000E+03   6.84071172E-01   1.37353390E+02   2.22834603E+00   5.77384432E+01   1.20515110E-01   6.57739991E+01   1.79502706E-01  -1.49305835E+02
 2.60000000E+03   6.87763746E-01   1.33756917E+02   2.08300693E+00   5.56392539E+01   1.33703323E-01   6.54120211E+01   1.95203314E-01  -1.50182973E+02
 2.80000000E+03   7.03552297E-01   1.29299810E+02   1.88125103E+00   5.32265174E+01   1.41066435E-01   6.41891415E+01   2.01995074E-01  -1.55030629E+02
 3.00000000E+03   7.04824756E-01   1.26018684E+02   1.78236751E+00   4.83521411E+01   1.48218508E-01   6.36961382E+01   2.17159386E-01  -1.51814066E+02
