!FrEq.   S11(v2)   S12(v2)   S21(v2)   S22(v2)
# Hz S RI R 50

1.00000000000000E+008   -9.19525534124198E-001   -3.51688507499846E-001   2.10143327650346E-003   3.39682965558686E-004   2.10064576534129E-003   3.45410649590920E-004   -1.87283134992144E-003   -4.30593058840754E-002
1.00950475237619E+008   -9.20694662675670E-001   -3.48589456219265E-001   2.10267557800903E-003   3.35854282923361E-004   2.10190713669797E-003   3.41531279773452E-004   -1.90943955881584E-003   -4.34669178406532E-002
1.01900950475238E+008   -9.21832595139495E-001   -3.45542608361506E-001   2.10388332952501E-003   3.32082855531503E-004   2.10313344885933E-003   3.37710017158067E-004   -1.94639120686113E-003   -4.38744832129816E-002
1.02851425712856E+008   -9.22940419671185E-001   -3.42546710494067E-001   2.10505772356166E-003   3.28367310302361E-004   2.10432591209405E-003   3.33945468208449E-004   -1.98368621618727E-003   -4.42820015663402E-002
1.03801900950475E+008   -9.24019177916695E-001   -3.39600546884062E-001   2.10619990166375E-003   3.24706315467122E-004   2.10548568494630E-003   3.30236281315469E-004   -2.02132450813841E-003   -4.46894724662221E-002
1.04752376188094E+008   -9.25069867350086E-001   -3.36702938196748E-001   2.10731095697223E-003   3.21098579142727E-004   2.10661387683558E-003   3.26581145349759E-004   -2.05930600327986E-003   -4.50968954783347E-002
1.05702851425713E+008   -9.26093443476937E-001   -3.33852740240988E-001   2.10839193663877E-003   3.17542847957119E-004   2.10771155050716E-003   3.22978788266490E-004   -2.09763062139945E-003   -4.55042701685988E-002
1.06653326663332E+008   -9.27090821912117E-001   -3.31048842760226E-001   2.10944384410266E-003   3.14037905724366E-004   2.10877972434295E-003   3.19427975760757E-004   -2.13629828151085E-003   -4.59115961031492E-002
1.07603801900950E+008   -9.28062880339940E-001   -3.28290168267500E-001   2.11046764123875E-003   3.10582572168033E-004   2.10981937454140E-003   3.15927509971947E-004   -2.17530890185613E-003   -4.63188728483348E-002
1.08554277138569E+008   -9.29010460364155E-001   -3.25575670923070E-001   2.11146425038476E-003   3.07175701691265E-004   2.11083143717499E-003   3.12476228235498E-004   -2.21466239990953E-003   -4.67260999707184E-002
1.09504752376188E+008   -9.29934369254695E-001   -3.22904335453224E-001   2.11243455625536E-003   3.03816182191983E-004   2.11181681013285E-003   3.09073001880456E-004   -2.25435869237878E-003   -4.71332770370772E-002
1.10455227613807E+008   -9.30835381597654E-001   -3.20275176108848E-001   2.11337940775029E-003   3.00502933921666E-004   2.11277635495576E-003   3.05716735071255E-004   -2.29439769520812E-003   -4.75404036144029E-002
1.11405702851426E+008   -9.31714240854476E-001   -3.17687235662385E-001   2.11429961966292E-003   2.97234908386184E-004   2.11371089857024E-003   3.02406363692187E-004   -2.33477932358028E-003   -4.79474792699021E-002
1.12356178089044E+008   -9.32571660835981E-001   -3.15139584441809E-001   2.11519597429557E-003   2.94011087287214E-004   2.11462123492780E-003   2.99140854273049E-004   -2.37550349191995E-003   -4.83545035709964E-002
1.13306653326663E+008   -9.33408327096419E-001   -3.12631319400299E-001   2.11606922298709E-003   2.90830481502752E-004   2.11550812655540E-003   2.95919202954474E-004   -2.41657011389418E-003   -4.87614760853232E-002
1.14257128564282E+008   -9.34224898252439E-001   -3.10161563220296E-001   2.11692008755828E-003   2.87692130105330E-004   2.11637230602229E-003   2.92740434491522E-004   -2.45797910241530E-003   -4.91683963807356E-002
1.15207603801901E+008   -9.35022007231489E-001   -3.07729463450693E-001   2.11774926167983E-003   2.84595099416517E-004   2.11721447732841E-003   2.89603601294111E-004   -2.49973036964346E-003   -4.95752640253033E-002
1.16158079039520E+008   -9.35800262453902E-001   -3.05334191675930E-001   2.11855741216777E-003   2.81538482096397E-004   2.11803531721907E-003   2.86507782502919E-004   -2.54182382698809E-003   -4.99820785873128E-002
1.17108554277138E+008   -9.36560248952608E-001   -3.02974942715784E-001   2.11934518021043E-003   2.78521396266676E-004   2.11883547643018E-003   2.83452083099446E-004   -2.58425938510864E-003   -5.03888396352680E-002
1.18059029514757E+008   -9.37302529434176E-001   -3.00650933854711E-001   2.12011318253113E-003   2.75542984666181E-004   2.11961558086833E-003   2.80435633048929E-004   -2.62703695391842E-003   -5.07955467378909E-002
1.19009504752376E+008   -9.38027645284636E-001   -2.98361404099624E-001   2.12086201249042E-003   2.72602413837504E-004   2.12037623272938E-003   2.77457586474876E-004   -2.67015644258484E-003   -5.12021994641220E-002
1.19959979989995E+008   -9.38736117523304E-001   -2.96105613465001E-001   2.12159224113132E-003   2.69698873343617E-004   2.12111801155923E-003   2.74517120864009E-004   -2.71361775953105E-003   -5.16087973831211E-002
1.20910455227614E+008   -9.39428447707637E-001   -2.93882842284302E-001   2.12230441817081E-003   2.66831575013297E-004   2.12184147526021E-003   2.71613436300459E-004   -2.75742081243879E-003   -5.20153400642678E-002
1.21860930465232E+008   -9.40105118791942E-001   -2.91692390546668E-001   2.12299907294091E-003   2.63999752214264E-004   2.12254716104602E-003   2.68745754728075E-004   -2.80156550824873E-003   -5.24218270771623E-002
1.22811405702851E+008   -9.40766595942578E-001   -2.89533577257930E-001   2.12367671528191E-003   2.61202659152964E-004   2.12323558634839E-003   2.65913319239776E-004   -2.84605175316244E-003   -5.28282579916260E-002
1.23761880940470E+008   -9.41413327312144E-001   -2.87405739824991E-001   2.12433783639082E-003   2.58439570199951E-004   2.12390724967807E-003   2.63115393392894E-004   -2.89087945264321E-003   -5.32346323777024E-002
1.24712356178089E+008   -9.42045744774952E-001   -2.85308233462671E-001   2.12498290962728E-003   2.55709779239901E-004   2.12456263144280E-003   2.60351260549499E-004   -2.93604851141838E-003   -5.36409498056579E-002
1.25662831415708E+008   -9.42664264625984E-001   -2.83240430622149E-001   2.12561239127947E-003   2.53012599045274E-004   2.12520219472461E-003   2.57620223240742E-004   -2.98155883348028E-003   -5.40472098459822E-002
1.26613306653327E+008   -9.43269288245361E-001   -2.81201720440154E-001   2.12622672129230E-003   2.50347360672734E-004   2.12582638601887E-003   2.54921602554278E-004   -3.02741032208775E-003   -5.44534120693896E-002
1.27563781890945E+008   -9.43861202730237E-001   -2.79191508208107E-001   2.12682632395984E-003   2.47713412881409E-004   2.12643563593697E-003   2.52254737543869E-004   -3.07360287976677E-003   -5.48595560468196E-002
1.28514257128564E+008   -9.44440381495931E-001   -2.77209214860427E-001   2.12741160858402E-003   2.45110121572175E-004   2.12703035987492E-003   2.49618984660312E-004   -3.12013640831244E-003   -5.52656413494379E-002
1.29464732366183E+008   -9.45007184847956E-001   -2.75254276481267E-001   2.12798297010151E-003   2.42536869247114E-004   2.12761095864951E-003   2.47013717202852E-004   -3.16701080879012E-003   -5.56716675486369E-002
1.30415207603802E+008   -9.45561960526563E-001   -2.73326143828951E-001   2.12854078968042E-003   2.39993054488387E-004   2.12817781910390E-003   2.44438324790288E-004   -3.21422598153620E-003   -5.60776342160373E-002
1.31365682841421E+008   -9.46105044225258E-001   -2.71424281877431E-001   2.12908543528853E-003   2.37478091455745E-004   2.12873131468432E-003   2.41892212851008E-004   -3.26178182615977E-003   -5.64835409234882E-002
1.32316158079039E+008   -9.46636760084718E-001   -2.69548169374096E-001   2.12961726223450E-003   2.34991409401969E-004   2.12927180598936E-003   2.39374802131208E-004   -3.30967824154293E-003   -5.68893872430688E-002
1.33266633316658E+008   -9.47157421163400E-001   -2.67697298413307E-001   2.13013661368361E-003   2.32532452205534E-004   2.12979964129334E-003   2.36885528220594E-004   -3.35791512584305E-003   -5.72951727470887E-002
1.34217108554277E+008   -9.47667329886096E-001   -2.65871174025031E-001   2.13064382114924E-003   2.30100677919824E-004   2.13031515704517E-003   2.34423841094891E-004   -3.40649237649293E-003   -5.77008970080895E-002
1.35167583791896E+008   -9.48166778471597E-001   -2.64069313778013E-001   2.13113920496159E-003   2.27695558338279E-004   2.13081867834402E-003   2.31989204674504E-004   -3.45540989020277E-003   -5.81065595988451E-002
1.36118059029515E+008   -9.48656049340553E-001   -2.62291247396891E-001   2.13162307471457E-003   2.25316578574817E-004   2.13131051939284E-003   2.29581096398702E-004   -3.50466756295986E-003   -5.85121600923635E-002
1.37068534267133E+008   -9.49135415504577E-001   -2.60536516392752E-001   2.13209572969218E-003   2.22963236658987E-004   2.13179098393115E-003   2.27199006814734E-004   -3.55426529003089E-003   -5.89176980618870E-002
1.38019009504752E+008   -9.49605140937554E-001   -2.58804673706575E-001   2.13255745927546E-003   2.20635043145249E-004   2.13226036564798E-003   2.24842439181293E-004   -3.60420296596276E-003   -5.93231730808941E-002
1.38969484742371E+008   -9.50065480930077E-001   -2.57095283365095E-001   2.13300854333080E-003   2.18331520735850E-004   2.13271894857606E-003   2.22510909085776E-004   -3.65448048458228E-003   -5.97285847230995E-002
1.39919959979990E+008   -9.50516682427879E-001   -2.55407920148588E-001   2.13344925258090E-003   2.16052203916783E-004   2.13316700746817E-003   2.20203944074822E-004   -3.70509773899963E-003   -6.01339325624564E-002
1.40870435217609E+008   -9.50958984355065E-001   -2.53742169270132E-001   2.13387984895888E-003   2.13796638606308E-004   2.13360480815666E-003   2.17921083297593E-004   -3.75605462160611E-003   -6.05392161731563E-002
1.41820910455227E+008   -9.51392617922929E-001   -2.52097626065901E-001   2.13430058594676E-003   2.11564381815569E-004   2.13403260789687E-003   2.15661877161347E-004   -3.80735102407881E-003   -6.09444351296312E-002
1.42771385692846E+008   -9.51817806925065E-001   -2.50473895696079E-001   2.13471170889880E-003   2.09355001320844E-004   2.13445065569536E-003   2.13425886998796E-004   -3.85898683737795E-003   -6.13495890065539E-002
1.43721860930465E+008   -9.52234768019477E-001   -2.48870592855969E-001   2.13511345535069E-003   2.07168075346974E-004   2.13485919262363E-003   2.11212684746830E-004   -3.91096195175011E-003   -6.17546773788396E-002
1.44672336168084E+008   -9.52643710998311E-001   -2.47287341496939E-001   2.13550605531507E-003   2.05003192261564E-004   2.13525845211812E-003   2.09021852636156E-004   -3.96327625672843E-003   -6.21596998216467E-002
1.45622811405703E+008   -9.53044839045851E-001   -2.45723774556806E-001   2.13588973156430E-003   2.02859950279533E-004   2.13564866026713E-003   2.06852982891454E-004   -4.01592964113340E-003   -6.25646559103781E-002
1.46573286643321E+008   -9.53438348985324E-001   -2.44179533699321E-001   2.13626469990089E-003   2.00737957177634E-004   2.13603003608529E-003   2.04705677441639E-004   -4.06892199307418E-003   -6.29695452206824E-002
1.47523761880940E+008   -9.53824431515091E-001   -2.42654269062404E-001   2.13663116941631E-003   1.98636830018556E-004   2.13640279177626E-003   2.02579547639862E-004   -4.12225319994841E-003   -6.33743673284548E-002
1.48474237118559E+008   -9.54203271434720E-001   -2.41147639014794E-001   2.13698934273877E-003   1.96556194884262E-004   2.13676713298415E-003   2.00474213992872E-004   -4.17592314844528E-003   -6.37791218098384E-002
1.49424712356178E+008   -9.54575047861433E-001   -2.39659309920816E-001   2.13733941627034E-003   1.94495686618212E-004   2.13712325903422E-003   1.98389305899400E-004   -4.22993172454333E-003   -6.41838082412254E-002
1.50375187593797E+008   -9.54939934437405E-001   -2.38188955912948E-001   2.13768158041419E-003   1.92454948576133E-004   2.13747136316346E-003   1.96324461397217E-004   -4.28427881351401E-003   -6.45884261992583E-002
1.51325662831415E+008   -9.55298099528328E-001   -2.36736258671906E-001   2.13801601979212E-003   1.90433632385028E-004   2.13781163274136E-003   1.94279326918557E-004   -4.33896429992131E-003   -6.49929752608309E-002
1.52276138069034E+008   -9.55649706413679E-001   -2.35300907213962E-001   2.13834291345306E-003   1.88431397710117E-004   2.13814424948161E-003   1.92253557053585E-004   -4.39398806762248E-003   -6.53974550030897E-002
1.53226613306653E+008   -9.55994913469062E-001   -2.33882597685233E-001   2.13866243507295E-003   1.86447912029409E-004   2.13846938964478E-003   1.90246814321611E-004   -4.44934999976954E-003   -6.58018650034349E-002
1.54177088544272E+008   -9.56333874341021E-001   -2.32481033162684E-001   2.13897475314622E-003   1.84482850415638E-004   2.13878722423283E-003   1.88258768949780E-004   -4.50504997880929E-003   -6.62062048395217E-002
1.55127563781891E+008   -9.56666738114649E-001   -2.31095923461595E-001   2.13928003116952E-003   1.82535895325275E-004   2.13909791917546E-003   1.86289098658942E-004   -4.56108788648502E-003   -6.66104740892614E-002
1.56078039019509E+008   -9.56993649474351E-001   -2.29726984949260E-001   2.13957842781785E-003   1.80606736394379E-004   2.13940163550893E-003   1.84337488456461E-004   -4.61746360383641E-003   -6.70146723308229E-002
1.57028514257128E+008   -9.57314748858067E-001   -2.28373940364688E-001   2.13987009711358E-003   1.78695070241013E-004   2.13969852954753E-003   1.82403630435692E-004   -4.67417701120132E-003   -6.74187991426335E-002
1.57978989494747E+008   -9.57630172605249E-001   -2.27036518644090E-001   2.14015518858860E-003   1.76800600274013E-004   2.13998875304821E-003   1.80487223581896E-004   -4.73122798821568E-003   -6.78228541033805E-002
1.58929464732366E+008   -9.57940053098898E-001   -2.25714454751939E-001   2.14043384743997E-003   1.74923036507856E-004   2.14027245336853E-003   1.78587973584357E-004   -4.78861641381489E-003   -6.82268367920121E-002
1.59879939969985E+008   -9.58244518901906E-001   -2.24407489517409E-001   2.14070621467932E-003   1.73062095383425E-004   2.14054977361826E-003   1.76705592654474E-004   -4.84634216623425E-003   -6.86307467877390E-002
1.60830415207603E+008   -9.58543694887985E-001   -2.23115369475995E-001   2.14097242727633E-003   1.71217499594447E-004   2.14082085280502E-003   1.74839799349617E-004   -4.90440512301049E-003   -6.90345836700352E-002
1.61780890445222E+008   -9.58837702367403E-001   -2.21837846716123E-001   2.14123261829650E-003   1.69388977919410E-004   2.14108582597409E-003   1.72990318402539E-004   -4.96280516098191E-003   -6.94383470186396E-002
1.62731365682841E+008   -9.59126659207781E-001   -2.20574678730590E-001   2.14148691703355E-003   1.67576265058760E-004   2.14134482434280E-003   1.71156880556147E-004   -5.02154215628858E-003   -6.98420364135571E-002
1.63681840920460E+008   -9.59410679950155E-001   -2.19325628272636E-001   2.14173544913659E-003   1.65779101477185E-004   2.14159797542956E-003   1.69339222403441E-004   -5.08061598437481E-003   -7.02456514350596E-002
1.64632316158079E+008   -9.59689875920524E-001   -2.18090463216514E-001   2.14197833673233E-003   1.63997233250817E-004   2.14184540317793E-003   1.67537086232438E-004   -5.14002651998868E-003   -7.06491916636879E-002
1.65582791395697E+008   -9.59964355337072E-001   -2.16868956422372E-001   2.14221569854260E-003   1.62230411919170E-004   2.14208722807589E-003   1.65750219875905E-004   -5.19977363718294E-003   -7.10526566802523E-002
1.66533266633316E+008   -9.60234223413261E-001   -2.15660885605315E-001   2.14244764999734E-003   1.60478394341651E-004   2.14232356727043E-003   1.63978376565732E-004   -5.25985720931621E-003   -7.14560460658341E-002
1.67483741870935E+008   -9.60499582456980E-001   -2.14466033208487E-001   2.14267430334322E-003   1.58740942558480E-004   2.14255453467791E-003   1.62221314791787E-004   -5.32027710905381E-003   -7.18593594017869E-002
1.68434217108554E+008   -9.60760531965901E-001   -2.13284186280046E-001   2.14289576774812E-003   1.57017823655874E-004   2.14278024109004E-003   1.60478798165083E-004   -5.38103320836769E-003   -7.22625962697381E-002
1.69384692346173E+008   -9.61017168719230E-001   -2.12115136353886E-001   2.14311214940172E-003   1.55308809635339E-004   2.14300079427591E-003   1.58750595285128E-004   -5.44212537853839E-003   -7.26657562515894E-002
1.70335167583791E+008   -9.61269586865993E-001   -2.10958679333978E-001   2.14332355161220E-003   1.53613677286925E-004   2.14321629908024E-003   1.57036479611296E-004   -5.50355349015508E-003   -7.30688389295189E-002
1.71285642821410E+008   -9.61517878010008E-001   -2.09814615382213E-001   2.14353007489937E-003   1.51932208066322E-004   2.14342685751784E-003   1.55336229338085E-004   -5.56531741311650E-003   -7.34718438859821E-002
1.72236118059029E+008   -9.61762131291684E-001   -2.08682748809616E-001   2.14373181708433E-003   1.50264187975646E-004   2.14363256886457E-003   1.53649627274135E-004   -5.62741701663183E-003   -7.38747707037127E-002
1.73186593296648E+008   -9.62002433466786E-001   -2.07562887970823E-001   2.14392887337574E-003   1.48609407447808E-004   2.14383352974496E-003   1.51976460724868E-004   -5.68985216922124E-003   -7.42776189657247E-002
1.74137068534267E+008   -9.62238868982278E-001   -2.06454845161710E-001   2.14412133645295E-003   1.46967661234323E-004   2.14402983421656E-003   1.50316521378635E-004   -5.75262273871779E-003   -7.46803882553130E-002
1.75087543771886E+008   -9.62471520049394E-001   -2.05358436520058E-001   2.14430929654607E-003   1.45338748296465E-004   2.14422157385117E-003   1.48669605196238E-004   -5.81572859226576E-003   -7.50830781560551E-002
1.76038019009504E+008   -9.62700466714019E-001   -2.04273481929165E-001   2.14449284151311E-003   1.43722471699632E-004   2.14440883781317E-003   1.47035512303737E-004   -5.87916959632384E-003   -7.54856882518121E-002
1.76988494247123E+008   -9.62925786924521E-001   -2.03199804924290E-001   2.14467205691428E-003   1.42118638510834E-004   2.14459171293491E-003   1.45414046888395E-004   -5.94294561666553E-003   -7.58882181267300E-002
1.77938969484742E+008   -9.63147556597118E-001   -2.02137232601856E-001   2.14484702608365E-003   1.40527059699184E-004   2.14477028378942E-003   1.43805017097700E-004   -6.00705651837818E-003   -7.62906673652413E-002
1.78889444722361E+008   -9.63365849678894E-001   -2.01085595531291E-001   2.14501783019818E-003   1.38947550039296E-004   2.14494463276049E-003   1.42208234941317E-004   -6.07150216586594E-003   -7.66930355520659E-002
1.79839919959980E+008   -9.63580738208553E-001   -2.00044727669445E-001   2.14518454834433E-003   1.37379928017495E-004   2.14511484011027E-003   1.40623516195907E-004   -6.13628242284936E-003   -7.70953222722126E-002
1.80790395197598E+008   -9.63792292375007E-001   -1.99014466277480E-001   2.14534725758219E-003   1.35824015740751E-004   2.14528098404437E-003   1.39050680312696E-004   -6.20139715236645E-003   -7.74975271109802E-002
1.81740870435217E+008   -9.64000580573884E-001   -1.97994651840166E-001   2.14550603300750E-003   1.34279638848226E-004   2.14544314077474E-003   1.37489550327716E-004   -6.26684621677365E-003   -7.78996496539591E-002
1.82691345672836E+008   -9.64205669462035E-001   -1.96985127987489E-001   2.14566094781129E-003   1.32746626425381E-004   2.14560138458029E-003   1.35939952774624E-004   -6.33262947774627E-003   -7.83016894870321E-002
1.83641820910455E+008   -9.64407624010130E-001   -1.95985741418503E-001   2.14581207333758E-003   1.31224810920524E-004   2.14575578786537E-003   1.34401717600011E-004   -6.39874679627894E-003   -7.87036461963764E-002
1.84592296148074E+008   -9.64606507553415E-001   -1.94996341827358E-001   2.14595947913896E-003   1.29714028063749E-004   2.14590642121623E-003   1.32874678081132E-004   -6.46519803268775E-003   -7.91055193684641E-002
1.85542771385692E+008   -9.64802381840692E-001   -1.94016781831419E-001   2.14610323303027E-003   1.28214116788168E-004   2.14605335345546E-003   1.31358670745968E-004   -6.53198304660996E-003   -7.95073085900641E-002
